
T0F54 000:328 SEGGER J-Link V5.02l Log File (0001ms, 0276ms total)
T0F54 000:328 DLL Compiled: Nov 24 2015 09:55:49 (0001ms, 0276ms total)
T0F54 000:328 Logging started @ 2018-04-10 16:18 (0001ms, 0276ms total)
T0F54 000:329 JLINK_SetWarnOutHandler(...) (0000ms, 0276ms total)
T0F54 000:329 JLINK_OpenEx(...)
Firmware: J-Link ARM-OB STM32 compiled Aug 22 2012 19:52:04
Hardware: V7.00
S/N: 20090928
Feature(s): RDI,FlashDL,FlashBP,JFlash,GDB  returns O.K. (0274ms, 0550ms total)
T0F54 000:603 JLINK_SetErrorOutHandler(...) (0000ms, 0550ms total)
T0F54 000:603 JLINK_ExecCommand("ProjectFile = "E:\CodesCircuits\Radar\Code\MDK-ARM\JLinkSettings.ini"", ...)  returns 0x00 (0001ms, 0551ms total)
T0F54 000:604 JLINK_ExecCommand("Device = STM32F103C8", ...)Device "STM32F103C8" selected.  returns 0x00 (0002ms, 0553ms total)
T0F54 000:606 JLINK_ExecCommand("DisableConnectionTimeout", ...)  returns 0x01 (0000ms, 0553ms total)
T0F54 000:606 JLINK_GetHardwareVersion()  returns 0x11170 (0000ms, 0553ms total)
T0F54 000:606 JLINK_GetDLLVersion()  returns 50212 (0000ms, 0553ms total)
T0F54 000:606 JLINK_GetFirmwareString(...) (0000ms, 0553ms total)
T0F54 000:607 JLINK_GetDLLVersion()  returns 50212 (0000ms, 0553ms total)
T0F54 000:607 JLINK_GetCompileDateTime() (0000ms, 0553ms total)
T0F54 000:607 JLINK_GetFirmwareString(...) (0000ms, 0553ms total)
T0F54 000:608 JLINK_GetHardwareVersion()  returns 0x11170 (0000ms, 0553ms total)
T0F54 000:609 JLINK_TIF_Select(JLINKARM_TIF_SWD)  returns 0x00 (0003ms, 0556ms total)
T0F54 000:612 JLINK_SetSpeed(20000) (0001ms, 0557ms total)
T0F54 000:613 JLINK_GetId() >0x108 TIF>Found SWD-DP with ID 0x1BA01477 >0x0D TIF> >0x28 TIF> >0x0D TIF> >0x28 TIF> >0x0D TIF> >0x21 TIF> >0x0D TIF> >0x28 TIF> >0x0D TIF> >0x28 TIF> >0x0D TIF> >0x28 TIF> >0x0D TIF> >0x21 TIF> >0x0D TIF> >0x21 TIF> >0x0D TIF> >0x28 TIF> >0x0D TIF> >0x21 TIF> >0x0D TIF> >0x21 TIF> >0x0D TIF> >0x28 TIF> >0x0D TIF> >0x21 TIF> >0x0D TIF> >0x21 TIF> >0x0D TIF> >0x28 TIF> >0x0D TIF> >0x21 TIF> >0x0D TIF> >0x21 TIF> >0x108 TIF>Found SWD-DP with ID 0x1BA01477 >0x0D TIF> >0x21 TIF>
 >0x0D TIF> >0x28 TIF> >0x0D TIF> >0x28 TIF> >0x0D TIF> >0x21 TIF> >0x0D TIF> >0x28 TIF> >0x0D TIF> >0x21 TIF> >0x0D TIF> >0x21 TIF> >0x0D TIF> >0x21 TIF> >0x0D TIF> >0x21 TIF> >0x0D TIF> >0x28 TIF> >0x0D TIF> >0x28 TIF> >0x0D TIF> >0x21 TIF> >0x0D TIF> >0x28 TIF> >0x0D TIF> >0x28 TIF> >0x0D TIF> >0x28 TIF> >0x0D TIF> >0x21 TIF> >0x0D TIF> >0x21 TIF> >0x0D TIF> >0x28 TIF> >0x0D TIF> >0x21 TIF> >0x0D TIF> >0x21 TIF>Found Cortex-M3 r1p1, Little endian. -- CPU_ReadMem(4 bytes @ 0xE000EDF0)
 -- CPU_ReadMem(4 bytes @ 0xE0002000)FPUnit: 6 code (BP) slots and 2 literal slots -- CPU_ReadMem(4 bytes @ 0xE000EDFC) -- CPU_ReadMem(4 bytes @ 0xE0001000) -- CPU_WriteMem(4 bytes @ 0xE0001000) -- CPU_ReadMem(4 bytes @ 0xE000ED88) -- CPU_WriteMem(4 bytes @ 0xE000ED88) -- CPU_ReadMem(4 bytes @ 0xE000ED88) -- CPU_WriteMem(4 bytes @ 0xE000ED88)CoreSight components:ROMTbl 0 @ E00FF000 -- CPU_ReadMem(16 bytes @ 0xE00FF000) -- CPU_ReadMem(16 bytes @ 0xE000EFF0) -- CPU_ReadMem(16 bytes @ 0xE000EFE0)
ROMTbl 0 [0]: FFF0F000, CID: B105E00D, PID: 001BB000 SCS -- CPU_ReadMem(16 bytes @ 0xE0001FF0) -- CPU_ReadMem(16 bytes @ 0xE0001FE0)ROMTbl 0 [1]: FFF02000, CID: B105E00D, PID: 001BB002 DWT -- CPU_ReadMem(16 bytes @ 0xE0002FF0) -- CPU_ReadMem(16 bytes @ 0xE0002FE0)ROMTbl 0 [2]: FFF03000, CID: B105E00D, PID: 000BB003 FPB -- CPU_ReadMem(16 bytes @ 0xE0000FF0) -- CPU_ReadMem(16 bytes @ 0xE0000FE0)ROMTbl 0 [3]: FFF01000, CID: B105E00D, PID: 001BB001 ITM -- CPU_ReadMem(16 bytes @ 0xE00FF010)
 -- CPU_ReadMem(16 bytes @ 0xE0040FF0) -- CPU_ReadMem(16 bytes @ 0xE0040FE0)ROMTbl 0 [4]: FFF41000, CID: B105900D, PID: 001BB923 TPIU-Lite >0x0D TIF> >0x21 TIF>  returns 0x1BA01477 (0120ms, 0677ms total)
T0F54 000:733 JLINK_GetDLLVersion()  returns 50212 (0000ms, 0677ms total)
T0F54 000:733 JLINK_CORE_GetFound()  returns 0x30000FF (0000ms, 0677ms total)
T0F54 000:733 JLINK_GetDebugInfo(0x100) -- Value=0xE00FF003  returns 0x00 (0000ms, 0677ms total)
T0F54 000:734 JLINK_GetDebugInfo(0x100) -- Value=0xE00FF003  returns 0x00 (0000ms, 0677ms total)
T0F54 000:734 JLINK_GetDebugInfo(0x101) -- Value=0x00000000  returns 0x00 (0000ms, 0677ms total)
T0F54 000:734 JLINK_ReadMem (0xE0041FF0, 0x0010 Bytes, ...) -- CPU is running -- CPU_ReadMem(16 bytes @ 0xE0041FF0) - Data: 00 00 00 00 00 00 00 00 00 00 00 00 00 00 00 00  returns 0x00 (0002ms, 0679ms total)
T0F54 000:736 JLINK_GetDebugInfo(0x102) -- Value=0x00000000  returns 0x00 (0000ms, 0679ms total)
T0F54 000:736 JLINK_GetDebugInfo(0x103) -- Value=0xE0040000  returns 0x00 (0000ms, 0679ms total)
T0F54 000:736 JLINK_GetDebugInfo(0x104) -- Value=0xE0000000  returns 0x00 (0000ms, 0679ms total)
T0F54 000:736 JLINK_GetDebugInfo(0x105) -- Value=0xE0001000  returns 0x00 (0000ms, 0679ms total)
T0F54 000:736 JLINK_GetDebugInfo(0x106) -- Value=0xE0002000  returns 0x00 (0000ms, 0679ms total)
T0F54 000:736 JLINK_GetDebugInfo(0x107) -- Value=0xE000E000  returns 0x00 (0000ms, 0679ms total)
T0F54 000:736 JLINK_GetDebugInfo(0x10C) -- Value=0xE000EDF0  returns 0x00 (0000ms, 0679ms total)
T0F54 000:736 JLINK_ReadMemU32(0xE000ED00, 0x0001 Items, ...) -- CPU is running -- CPU_ReadMem(4 bytes @ 0xE000ED00) - Data: 31 C2 1F 41  returns 0x01 (0002ms, 0681ms total)
T0F54 000:738 JLINK_SetResetType(JLINKARM_RESET_TYPE_NORMAL)  returns JLINKARM_RESET_TYPE_NORMAL (0000ms, 0681ms total)
T0F54 000:738 JLINK_Reset() -- CPU is running -- CPU_WriteMem(4 bytes @ 0xE000EDF0) -- CPU is running -- CPU_WriteMem(4 bytes @ 0xE000EDFC) >0x35 TIF> -- CPU is running -- CPU_WriteMem(4 bytes @ 0xE000ED0C) -- CPU is running -- CPU_ReadMem(4 bytes @ 0xE000EDF0) -- CPU is running -- CPU_ReadMem(4 bytes @ 0xE000EDF0) -- CPU is running -- CPU_WriteMem(4 bytes @ 0xE000EDF0) -- CPU is running -- CPU_WriteMem(4 bytes @ 0xE000EDFC) -- CPU is running -- CPU_ReadMem(4 bytes @ 0xE000EDF0)
 -- CPU_WriteMem(4 bytes @ 0xE0002000) -- CPU_ReadMem(4 bytes @ 0xE000EDFC) -- CPU_ReadMem(4 bytes @ 0xE0001000) (0025ms, 0706ms total)
T0F54 000:763 JLINK_ReadReg(R15 (PC))  returns 0x08000100 (0000ms, 0706ms total)
T0F54 000:763 JLINK_ReadReg(XPSR)  returns 0x01000000 (0000ms, 0706ms total)
T0F54 000:763 JLINK_Halt()  returns 0x00 (0000ms, 0706ms total)
T0F54 000:763 JLINK_IsHalted()  returns TRUE (0000ms, 0706ms total)
T0F54 000:763 JLINK_ReadMemU32(0xE000EDF0, 0x0001 Items, ...) -- CPU_ReadMem(4 bytes @ 0xE000EDF0) - Data: 03 00 03 00  returns 0x01 (0002ms, 0708ms total)
T0F54 000:765 JLINK_WriteU32(0xE000EDF0, 0xA05F0003) -- CPU_WriteMem(4 bytes @ 0xE000EDF0)  returns 0x00 (0001ms, 0709ms total)
T0F54 000:766 JLINK_WriteU32(0xE000EDFC, 0x01000000) -- CPU_WriteMem(4 bytes @ 0xE000EDFC)  returns 0x00 (0002ms, 0711ms total)
T0F54 000:769 JLINK_GetHWStatus(...)  returns 0x00 (0001ms, 0712ms total)
T0F54 000:771 JLINK_GetNumBPUnits(Type = 0xFFFFFF00)  returns 0x06 (0000ms, 0712ms total)
T0F54 000:771 JLINK_GetNumBPUnits(Type = 0xF0)  returns 0x2000 (0000ms, 0712ms total)
T0F54 000:771 JLINK_GetNumWPUnits()  returns 0x04 (0000ms, 0712ms total)
T0F54 000:772 JLINK_GetSpeed()  returns 0xFA0 (0000ms, 0712ms total)
T0F54 000:772 JLINK_ReadMemU32(0xE000E004, 0x0001 Items, ...) -- CPU_ReadMem(4 bytes @ 0xE000E004) - Data: 01 00 00 00  returns 0x01 (0002ms, 0714ms total)
T0F54 000:774 JLINK_ReadMemU32(0xE000E004, 0x0001 Items, ...) -- CPU_ReadMem(4 bytes @ 0xE000E004) - Data: 01 00 00 00  returns 0x01 (0001ms, 0715ms total)
T0F54 000:775 JLINK_WriteMem(0xE0001000, 0x001C Bytes, ...) - Data: 01 00 00 00 00 00 00 00 00 00 00 00 00 00 00 00 ... -- CPU_WriteMem(28 bytes @ 0xE0001000)  returns 0x1C (0003ms, 0718ms total)
T0F54 000:779 JLINK_ReadMem (0xE0001000, 0x001C Bytes, ...) -- CPU_ReadMem(28 bytes @ 0xE0001000) - Data: 01 00 00 40 00 00 00 00 00 00 00 00 00 00 00 00 ...  returns 0x00 (0001ms, 0719ms total)
T0F54 000:780 JLINK_ReadReg(R15 (PC))  returns 0x08000100 (0000ms, 0719ms total)
T0F54 000:780 JLINK_ReadReg(XPSR)  returns 0x01000000 (0000ms, 0719ms total)
T0F54 000:917 JLINK_SetResetType(JLINKARM_RESET_TYPE_NORMAL)  returns JLINKARM_RESET_TYPE_NORMAL (0000ms, 0719ms total)
T0F54 000:917 JLINK_Reset() -- CPU_WriteMem(4 bytes @ 0xE000EDF0) -- CPU_WriteMem(4 bytes @ 0xE000EDFC) >0x35 TIF> -- CPU_WriteMem(4 bytes @ 0xE000ED0C) -- CPU_ReadMem(4 bytes @ 0xE000EDF0) -- CPU_ReadMem(4 bytes @ 0xE000EDF0) -- CPU_WriteMem(4 bytes @ 0xE000EDF0) -- CPU_WriteMem(4 bytes @ 0xE000EDFC) -- CPU is running -- CPU_ReadMem(4 bytes @ 0xE000EDF0) -- CPU_WriteMem(4 bytes @ 0xE0002000) -- CPU_ReadMem(4 bytes @ 0xE000EDFC) -- CPU_ReadMem(4 bytes @ 0xE0001000) (0028ms, 0747ms total)
T0F54 000:945 JLINK_ReadReg(R15 (PC))  returns 0x08000100 (0000ms, 0747ms total)
T0F54 000:945 JLINK_ReadReg(XPSR)  returns 0x01000000 (0000ms, 0747ms total)
T0F54 000:946 JLINK_ReadMem (0x08000100, 0x003C Bytes, ...) -- CPU_ReadMem(64 bytes @ 0x08000100) -- Updating C cache (64 bytes @ 0x08000100) -- Read from C cache (60 bytes @ 0x08000100) - Data: 06 48 80 47 06 48 00 47 FE E7 FE E7 FE E7 FE E7 ...  returns 0x00 (0002ms, 0749ms total)
T0F54 001:904 JLINK_ReadMem (0x200001D8, 0x0020 Bytes, ...) -- CPU_ReadMem(64 bytes @ 0x200001C0) -- Updating C cache (64 bytes @ 0x200001C0) -- Read from C cache (32 bytes @ 0x200001D8) - Data: 5A A5 03 82 4F 4B 00 00 00 00 00 00 00 00 00 00 ...  returns 0x00 (0003ms, 0752ms total)
T11D4 001:923 JLINK_SetBPEx(Addr = 0x08002E3C, Type = 0xFFFFFFF2)  returns 0x00000001 (0000ms, 0752ms total)
T11D4 001:923 JLINK_Go() -- CPU_WriteMem(4 bytes @ 0xE0002000) -- CPU_ReadMem(4 bytes @ 0xE0001000) -- CPU_WriteMem(4 bytes @ 0xE0002008) -- CPU_WriteMem(4 bytes @ 0xE000200C) -- CPU_WriteMem(4 bytes @ 0xE0002010) -- CPU_WriteMem(4 bytes @ 0xE0002014) -- CPU_WriteMem(4 bytes @ 0xE0002018) -- CPU_WriteMem(4 bytes @ 0xE000201C) -- CPU_WriteMem(4 bytes @ 0xE0001004) (0011ms, 0763ms total)
T11D4 002:034 JLINK_IsHalted()  returns TRUE (0004ms, 0767ms total)
T11D4 002:038 JLINK_Halt()  returns 0x00 (0000ms, 0763ms total)
T11D4 002:038 JLINK_IsHalted()  returns TRUE (0000ms, 0763ms total)
T11D4 002:038 JLINK_IsHalted()  returns TRUE (0000ms, 0763ms total)
T11D4 002:038 JLINK_IsHalted()  returns TRUE (0000ms, 0763ms total)
T11D4 002:038 JLINK_ReadReg(R15 (PC))  returns 0x08002E3C (0000ms, 0763ms total)
T11D4 002:038 JLINK_ReadReg(XPSR)  returns 0x61000000 (0000ms, 0763ms total)
T11D4 002:038 JLINK_ClrBPEx(BPHandle = 0x00000001)  returns 0x00 (0000ms, 0763ms total)
T11D4 002:038 JLINK_ReadMemU32(0xE000ED30, 0x0001 Items, ...) -- CPU_ReadMem(4 bytes @ 0xE000ED30) - Data: 03 00 00 00  returns 0x01 (0002ms, 0765ms total)
T11D4 002:040 JLINK_ReadMemU32(0xE0001028, 0x0001 Items, ...) -- CPU_ReadMem(4 bytes @ 0xE0001028) - Data: 00 00 00 00  returns 0x01 (0001ms, 0766ms total)
T11D4 002:041 JLINK_ReadMemU32(0xE0001038, 0x0001 Items, ...) -- CPU_ReadMem(4 bytes @ 0xE0001038) - Data: 00 02 00 00  returns 0x01 (0001ms, 0767ms total)
T11D4 002:042 JLINK_ReadMemU32(0xE0001048, 0x0001 Items, ...) -- CPU_ReadMem(4 bytes @ 0xE0001048) - Data: 00 00 00 00  returns 0x01 (0001ms, 0768ms total)
T11D4 002:043 JLINK_ReadMemU32(0xE0001058, 0x0001 Items, ...) -- CPU_ReadMem(4 bytes @ 0xE0001058) - Data: 00 00 00 00  returns 0x01 (0001ms, 0769ms total)
T11D4 002:044 JLINK_ReadReg(R0)  returns 0x08002E3D (0000ms, 0769ms total)
T11D4 002:044 JLINK_ReadReg(R1)  returns 0x20000618 (0000ms, 0769ms total)
T11D4 002:044 JLINK_ReadReg(R2)  returns 0x00000000 (0000ms, 0769ms total)
T11D4 002:044 JLINK_ReadReg(R3)  returns 0x08002E19 (0000ms, 0769ms total)
T11D4 002:044 JLINK_ReadReg(R4)  returns 0x0800318C (0000ms, 0769ms total)
T11D4 002:044 JLINK_ReadReg(R5)  returns 0x0800318C (0000ms, 0769ms total)
T11D4 002:044 JLINK_ReadReg(R6)  returns 0x00000064 (0001ms, 0770ms total)
T11D4 002:045 JLINK_ReadReg(R7)  returns 0x00000000 (0000ms, 0770ms total)
T11D4 002:045 JLINK_ReadReg(R8)  returns 0x00000AAF (0000ms, 0770ms total)
T11D4 002:045 JLINK_ReadReg(R9)  returns 0x00000AAF (0000ms, 0770ms total)
T11D4 002:045 JLINK_ReadReg(R10)  returns 0x00000000 (0000ms, 0770ms total)
T11D4 002:045 JLINK_ReadReg(R11)  returns 0x00000000 (0000ms, 0770ms total)
T11D4 002:045 JLINK_ReadReg(R12)  returns 0x00000004 (0000ms, 0770ms total)
T11D4 002:045 JLINK_ReadReg(R13 (SP))  returns 0x20000618 (0000ms, 0770ms total)
T11D4 002:045 JLINK_ReadReg(R14)  returns 0x080001A9 (0000ms, 0770ms total)
T11D4 002:045 JLINK_ReadReg(R15 (PC))  returns 0x08002E3C (0000ms, 0770ms total)
T11D4 002:045 JLINK_ReadReg(XPSR)  returns 0x61000000 (0000ms, 0770ms total)
T11D4 002:045 JLINK_ReadReg(MSP)  returns 0x20000618 (0000ms, 0770ms total)
T11D4 002:045 JLINK_ReadReg(PSP)  returns 0x20001000 (0000ms, 0770ms total)
T11D4 002:045 JLINK_ReadReg(CFBP)  returns 0x00000000 (0000ms, 0770ms total)
T0F54 002:046 JLINK_ReadMem (0x00000000, 0x0001 Bytes, ...) -- CPU_ReadMem(4 bytes @ 0x00000004) -- CPU_ReadMem(64 bytes @ 0x08000000) -- Updating C cache (64 bytes @ 0x08000000) -- Read from C cache (1 bytes @ 0x08000000) - Data: 18  returns 0x00 (0004ms, 0774ms total)
T0F54 002:050 JLINK_ReadMem (0x200005FC, 0x001A Bytes, ...) -- CPU_ReadMem(128 bytes @ 0x200005C0) -- Updating C cache (128 bytes @ 0x200005C0) -- Read from C cache (26 bytes @ 0x200005FC) - Data: 00 00 00 00 00 00 00 00 00 00 00 00 00 00 00 00 ...  returns 0x00 (0002ms, 0776ms total)
T0F54 002:054 JLINK_ReadMemU32(0xE0001004, 0x0001 Items, ...) -- CPU_ReadMem(4 bytes @ 0xE0001004) - Data: B7 09 00 00  returns 0x01 (0002ms, 0778ms total)
T0F54 002:057 JLINK_ReadMem (0x200001D8, 0x0020 Bytes, ...) -- CPU_ReadMem(64 bytes @ 0x200001C0) -- Updating C cache (64 bytes @ 0x200001C0) -- Read from C cache (32 bytes @ 0x200001D8) - Data: 00 00 00 00 00 00 00 00 00 00 00 00 00 00 00 00 ...  returns 0x00 (0002ms, 0780ms total)
T11D4 004:821 JLINK_ReadMem (0x08002E3C, 0x003C Bytes, ...) -- CPU_ReadMem(128 bytes @ 0x08002E00) -- Updating C cache (128 bytes @ 0x08002E00) -- Read from C cache (60 bytes @ 0x08002E3C) - Data: 88 B0 4F F0 96 08 03 25 00 26 00 27 00 BF 4F F0 ...  returns 0x00 (0003ms, 0783ms total)
T11D4 004:824 JLINK_Step() -- Read from C cache (2 bytes @ 0x08002E3C) -- Simulated  returns 0x00 (0001ms, 0784ms total)
T11D4 004:825 JLINK_ReadReg(R15 (PC))  returns 0x08002E3E (0000ms, 0784ms total)
T11D4 004:825 JLINK_ReadReg(XPSR)  returns 0x61000000 (0000ms, 0784ms total)
T11D4 004:825 JLINK_ReadReg(R0)  returns 0x08002E3D (0000ms, 0784ms total)
T11D4 004:825 JLINK_ReadReg(R1)  returns 0x20000618 (0000ms, 0784ms total)
T11D4 004:825 JLINK_ReadReg(R2)  returns 0x00000000 (0000ms, 0784ms total)
T11D4 004:825 JLINK_ReadReg(R3)  returns 0x08002E19 (0001ms, 0785ms total)
T11D4 004:826 JLINK_ReadReg(R4)  returns 0x0800318C (0000ms, 0785ms total)
T11D4 004:826 JLINK_ReadReg(R5)  returns 0x0800318C (0000ms, 0785ms total)
T11D4 004:826 JLINK_ReadReg(R6)  returns 0x00000064 (0000ms, 0785ms total)
T11D4 004:826 JLINK_ReadReg(R7)  returns 0x00000000 (0000ms, 0785ms total)
T11D4 004:826 JLINK_ReadReg(R8)  returns 0x00000AAF (0000ms, 0785ms total)
T11D4 004:826 JLINK_ReadReg(R9)  returns 0x00000AAF (0000ms, 0785ms total)
T11D4 004:826 JLINK_ReadReg(R10)  returns 0x00000000 (0000ms, 0785ms total)
T11D4 004:826 JLINK_ReadReg(R11)  returns 0x00000000 (0000ms, 0785ms total)
T11D4 004:826 JLINK_ReadReg(R12)  returns 0x00000004 (0000ms, 0785ms total)
T11D4 004:826 JLINK_ReadReg(R13 (SP))  returns 0x200005F8 (0000ms, 0785ms total)
T11D4 004:826 JLINK_ReadReg(R14)  returns 0x080001A9 (0000ms, 0785ms total)
T11D4 004:826 JLINK_ReadReg(R15 (PC))  returns 0x08002E3E (0000ms, 0785ms total)
T11D4 004:826 JLINK_ReadReg(XPSR)  returns 0x61000000 (0000ms, 0785ms total)
T11D4 004:826 JLINK_ReadReg(MSP)  returns 0x200005F8 (0000ms, 0785ms total)
T11D4 004:826 JLINK_ReadReg(PSP)  returns 0x20001000 (0000ms, 0785ms total)
T11D4 004:826 JLINK_ReadReg(CFBP)  returns 0x00000000 (0000ms, 0785ms total)
T0F54 004:827 JLINK_ReadMem (0x00000000, 0x0001 Bytes, ...) -- Read from C cache (1 bytes @ 0x08000000) - Data: 18  returns 0x00 (0000ms, 0785ms total)
T0F54 004:827 JLINK_ReadMem (0x200005FC, 0x001A Bytes, ...) -- Read from C cache (26 bytes @ 0x200005FC) - Data: 00 00 00 00 00 00 00 00 00 00 00 00 00 00 00 00 ...  returns 0x00 (0000ms, 0785ms total)
T0F54 004:827 JLINK_ReadMemU32(0xE0001004, 0x0001 Items, ...) - Data: B7 09 00 00  returns 0x01 (0000ms, 0785ms total)
T0F54 004:829 JLINK_ReadMem (0x200001D8, 0x0020 Bytes, ...) -- Read from C cache (32 bytes @ 0x200001D8) - Data: 00 00 00 00 00 00 00 00 00 00 00 00 00 00 00 00 ...  returns 0x00 (0000ms, 0785ms total)
T0F54 004:830 JLINK_ReadMem (0x08002E3E, 0x0002 Bytes, ...) -- Read from C cache (2 bytes @ 0x08002E3E) - Data: 4F F0  returns 0x00 (0000ms, 0786ms total)
T0F54 004:830 JLINK_ReadMem (0x08002E40, 0x003C Bytes, ...) -- Read from C cache (60 bytes @ 0x08002E40) - Data: 96 08 03 25 00 26 00 27 00 BF 4F F0 00 0A FE F7 ...  returns 0x00 (0000ms, 0786ms total)
T11D4 005:266 JLINK_Step() -- Read from C cache (2 bytes @ 0x08002E3E) -- Read from C cache (2 bytes @ 0x08002E40) -- Simulated  returns 0x00 (0000ms, 0786ms total)
T11D4 005:266 JLINK_ReadReg(R15 (PC))  returns 0x08002E42 (0000ms, 0786ms total)
T11D4 005:266 JLINK_ReadReg(XPSR)  returns 0x61000000 (0000ms, 0786ms total)
T11D4 005:266 JLINK_ReadReg(R0)  returns 0x08002E3D (0000ms, 0786ms total)
T11D4 005:266 JLINK_ReadReg(R1)  returns 0x20000618 (0000ms, 0786ms total)
T11D4 005:266 JLINK_ReadReg(R2)  returns 0x00000000 (0000ms, 0786ms total)
T11D4 005:266 JLINK_ReadReg(R3)  returns 0x08002E19 (0000ms, 0786ms total)
T11D4 005:266 JLINK_ReadReg(R4)  returns 0x0800318C (0000ms, 0786ms total)
T11D4 005:266 JLINK_ReadReg(R5)  returns 0x0800318C (0000ms, 0786ms total)
T11D4 005:266 JLINK_ReadReg(R6)  returns 0x00000064 (0000ms, 0786ms total)
T11D4 005:266 JLINK_ReadReg(R7)  returns 0x00000000 (0000ms, 0786ms total)
T11D4 005:266 JLINK_ReadReg(R8)  returns 0x00000096 (0000ms, 0786ms total)
T11D4 005:266 JLINK_ReadReg(R9)  returns 0x00000AAF (0001ms, 0787ms total)
T11D4 005:267 JLINK_ReadReg(R10)  returns 0x00000000 (0000ms, 0787ms total)
T11D4 005:267 JLINK_ReadReg(R11)  returns 0x00000000 (0000ms, 0787ms total)
T11D4 005:267 JLINK_ReadReg(R12)  returns 0x00000004 (0000ms, 0787ms total)
T11D4 005:267 JLINK_ReadReg(R13 (SP))  returns 0x200005F8 (0000ms, 0787ms total)
T11D4 005:267 JLINK_ReadReg(R14)  returns 0x080001A9 (0000ms, 0787ms total)
T11D4 005:267 JLINK_ReadReg(R15 (PC))  returns 0x08002E42 (0000ms, 0787ms total)
T11D4 005:267 JLINK_ReadReg(XPSR)  returns 0x61000000 (0000ms, 0787ms total)
T11D4 005:267 JLINK_ReadReg(MSP)  returns 0x200005F8 (0000ms, 0787ms total)
T11D4 005:267 JLINK_ReadReg(PSP)  returns 0x20001000 (0000ms, 0787ms total)
T11D4 005:267 JLINK_ReadReg(CFBP)  returns 0x00000000 (0000ms, 0787ms total)
T0F54 005:268 JLINK_ReadMem (0x00000000, 0x0001 Bytes, ...) -- Read from C cache (1 bytes @ 0x08000000) - Data: 18  returns 0x00 (0000ms, 0787ms total)
T0F54 005:268 JLINK_ReadMem (0x200005FC, 0x001A Bytes, ...) -- Read from C cache (26 bytes @ 0x200005FC) - Data: 00 00 00 00 00 00 00 00 00 00 00 00 00 00 00 00 ...  returns 0x00 (0000ms, 0787ms total)
T0F54 005:268 JLINK_ReadMemU32(0xE0001004, 0x0001 Items, ...) - Data: B7 09 00 00  returns 0x01 (0000ms, 0787ms total)
T0F54 005:268 JLINK_ReadMem (0x200001D8, 0x0020 Bytes, ...) -- Read from C cache (32 bytes @ 0x200001D8) - Data: 00 00 00 00 00 00 00 00 00 00 00 00 00 00 00 00 ...  returns 0x00 (0000ms, 0787ms total)
T0F54 005:269 JLINK_ReadMem (0x08002E42, 0x0002 Bytes, ...) -- Read from C cache (2 bytes @ 0x08002E42) - Data: 03 25  returns 0x00 (0000ms, 0787ms total)
T0F54 005:269 JLINK_ReadMem (0x08002E44, 0x003C Bytes, ...) -- Read from C cache (60 bytes @ 0x08002E44) - Data: 00 26 00 27 00 BF 4F F0 00 0A FE F7 01 FA FF F7 ...  returns 0x00 (0000ms, 0787ms total)
T11D4 005:621 JLINK_Step() -- Read from C cache (2 bytes @ 0x08002E42) -- Simulated  returns 0x00 (0001ms, 0788ms total)
T11D4 005:622 JLINK_ReadReg(R15 (PC))  returns 0x08002E44 (0000ms, 0788ms total)
T11D4 005:622 JLINK_ReadReg(XPSR)  returns 0x21000000 (0001ms, 0789ms total)
T11D4 005:623 JLINK_ReadReg(R0)  returns 0x08002E3D (0000ms, 0789ms total)
T11D4 005:623 JLINK_ReadReg(R1)  returns 0x20000618 (0000ms, 0789ms total)
T11D4 005:623 JLINK_ReadReg(R2)  returns 0x00000000 (0000ms, 0789ms total)
T11D4 005:623 JLINK_ReadReg(R3)  returns 0x08002E19 (0000ms, 0789ms total)
T11D4 005:623 JLINK_ReadReg(R4)  returns 0x0800318C (0000ms, 0789ms total)
T11D4 005:623 JLINK_ReadReg(R5)  returns 0x00000003 (0000ms, 0789ms total)
T11D4 005:623 JLINK_ReadReg(R6)  returns 0x00000064 (0000ms, 0789ms total)
T11D4 005:623 JLINK_ReadReg(R7)  returns 0x00000000 (0000ms, 0789ms total)
T11D4 005:623 JLINK_ReadReg(R8)  returns 0x00000096 (0000ms, 0789ms total)
T11D4 005:623 JLINK_ReadReg(R9)  returns 0x00000AAF (0000ms, 0789ms total)
T11D4 005:623 JLINK_ReadReg(R10)  returns 0x00000000 (0000ms, 0789ms total)
T11D4 005:623 JLINK_ReadReg(R11)  returns 0x00000000 (0000ms, 0789ms total)
T11D4 005:623 JLINK_ReadReg(R12)  returns 0x00000004 (0000ms, 0789ms total)
T11D4 005:623 JLINK_ReadReg(R13 (SP))  returns 0x200005F8 (0000ms, 0789ms total)
T11D4 005:623 JLINK_ReadReg(R14)  returns 0x080001A9 (0001ms, 0790ms total)
T11D4 005:624 JLINK_ReadReg(R15 (PC))  returns 0x08002E44 (0000ms, 0790ms total)
T11D4 005:624 JLINK_ReadReg(XPSR)  returns 0x21000000 (0000ms, 0790ms total)
T11D4 005:624 JLINK_ReadReg(MSP)  returns 0x200005F8 (0000ms, 0790ms total)
T11D4 005:624 JLINK_ReadReg(PSP)  returns 0x20001000 (0000ms, 0790ms total)
T11D4 005:624 JLINK_ReadReg(CFBP)  returns 0x00000000 (0000ms, 0790ms total)
T0F54 005:624 JLINK_ReadMem (0x00000000, 0x0001 Bytes, ...) -- Read from C cache (1 bytes @ 0x08000000) - Data: 18  returns 0x00 (0000ms, 0790ms total)
T0F54 005:624 JLINK_ReadMem (0x200005FC, 0x001A Bytes, ...) -- Read from C cache (26 bytes @ 0x200005FC) - Data: 00 00 00 00 00 00 00 00 00 00 00 00 00 00 00 00 ...  returns 0x00 (0000ms, 0790ms total)
T0F54 005:624 JLINK_ReadMemU32(0xE0001004, 0x0001 Items, ...) - Data: B7 09 00 00  returns 0x01 (0000ms, 0790ms total)
T0F54 005:625 JLINK_ReadMem (0x200001D8, 0x0020 Bytes, ...) -- Read from C cache (32 bytes @ 0x200001D8) - Data: 00 00 00 00 00 00 00 00 00 00 00 00 00 00 00 00 ...  returns 0x00 (0000ms, 0790ms total)
T0F54 005:625 JLINK_ReadMem (0x08002E44, 0x003C Bytes, ...) -- Read from C cache (60 bytes @ 0x08002E44) - Data: 00 26 00 27 00 BF 4F F0 00 0A FE F7 01 FA FF F7 ...  returns 0x00 (0000ms, 0790ms total)
T11D4 006:007 JLINK_Step() -- Read from C cache (2 bytes @ 0x08002E44) -- Simulated  returns 0x00 (0001ms, 0791ms total)
T11D4 006:008 JLINK_ReadReg(R15 (PC))  returns 0x08002E46 (0000ms, 0791ms total)
T11D4 006:008 JLINK_ReadReg(XPSR)  returns 0x61000000 (0000ms, 0791ms total)
T11D4 006:008 JLINK_ReadReg(R0)  returns 0x08002E3D (0000ms, 0791ms total)
T11D4 006:008 JLINK_ReadReg(R1)  returns 0x20000618 (0000ms, 0791ms total)
T11D4 006:008 JLINK_ReadReg(R2)  returns 0x00000000 (0000ms, 0791ms total)
T11D4 006:008 JLINK_ReadReg(R3)  returns 0x08002E19 (0000ms, 0791ms total)
T11D4 006:008 JLINK_ReadReg(R4)  returns 0x0800318C (0000ms, 0791ms total)
T11D4 006:008 JLINK_ReadReg(R5)  returns 0x00000003 (0000ms, 0791ms total)
T11D4 006:008 JLINK_ReadReg(R6)  returns 0x00000000 (0001ms, 0792ms total)
T11D4 006:009 JLINK_ReadReg(R7)  returns 0x00000000 (0000ms, 0792ms total)
T11D4 006:009 JLINK_ReadReg(R8)  returns 0x00000096 (0000ms, 0792ms total)
T11D4 006:009 JLINK_ReadReg(R9)  returns 0x00000AAF (0000ms, 0792ms total)
T11D4 006:009 JLINK_ReadReg(R10)  returns 0x00000000 (0000ms, 0792ms total)
T11D4 006:009 JLINK_ReadReg(R11)  returns 0x00000000 (0000ms, 0792ms total)
T11D4 006:009 JLINK_ReadReg(R12)  returns 0x00000004 (0000ms, 0792ms total)
T11D4 006:009 JLINK_ReadReg(R13 (SP))  returns 0x200005F8 (0000ms, 0792ms total)
T11D4 006:009 JLINK_ReadReg(R14)  returns 0x080001A9 (0000ms, 0792ms total)
T11D4 006:009 JLINK_ReadReg(R15 (PC))  returns 0x08002E46 (0000ms, 0792ms total)
T11D4 006:009 JLINK_ReadReg(XPSR)  returns 0x61000000 (0000ms, 0792ms total)
T11D4 006:009 JLINK_ReadReg(MSP)  returns 0x200005F8 (0000ms, 0792ms total)
T11D4 006:009 JLINK_ReadReg(PSP)  returns 0x20001000 (0000ms, 0792ms total)
T11D4 006:009 JLINK_ReadReg(CFBP)  returns 0x00000000 (0000ms, 0792ms total)
T0F54 006:011 JLINK_ReadMem (0x00000000, 0x0001 Bytes, ...) -- Read from C cache (1 bytes @ 0x08000000) - Data: 18  returns 0x00 (0000ms, 0792ms total)
T0F54 006:011 JLINK_ReadMem (0x200005FC, 0x001A Bytes, ...) -- Read from C cache (26 bytes @ 0x200005FC) - Data: 00 00 00 00 00 00 00 00 00 00 00 00 00 00 00 00 ...  returns 0x00 (0000ms, 0792ms total)
T0F54 006:011 JLINK_ReadMemU32(0xE0001004, 0x0001 Items, ...) - Data: B7 09 00 00  returns 0x01 (0000ms, 0792ms total)
T0F54 006:012 JLINK_ReadMem (0x200001D8, 0x0020 Bytes, ...) -- Read from C cache (32 bytes @ 0x200001D8) - Data: 00 00 00 00 00 00 00 00 00 00 00 00 00 00 00 00 ...  returns 0x00 (0000ms, 0792ms total)
T0F54 006:012 JLINK_ReadMem (0x08002E46, 0x0002 Bytes, ...) -- Read from C cache (2 bytes @ 0x08002E46) - Data: 00 27  returns 0x00 (0000ms, 0792ms total)
T0F54 006:012 JLINK_ReadMem (0x08002E48, 0x003C Bytes, ...) -- CPU_ReadMem(64 bytes @ 0x08002E80) -- Updating C cache (64 bytes @ 0x08002E80) -- Read from C cache (60 bytes @ 0x08002E48) - Data: 00 BF 4F F0 00 0A FE F7 01 FA FF F7 BD FB FF F7 ...  returns 0x00 (0001ms, 0793ms total)
T11D4 006:269 JLINK_Step() -- Read from C cache (2 bytes @ 0x08002E46) -- Simulated  returns 0x00 (0001ms, 0794ms total)
T11D4 006:270 JLINK_ReadReg(R15 (PC))  returns 0x08002E48 (0000ms, 0794ms total)
T11D4 006:270 JLINK_ReadReg(XPSR)  returns 0x61000000 (0000ms, 0794ms total)
T11D4 006:270 JLINK_ReadReg(R0)  returns 0x08002E3D (0000ms, 0794ms total)
T11D4 006:270 JLINK_ReadReg(R1)  returns 0x20000618 (0000ms, 0794ms total)
T11D4 006:270 JLINK_ReadReg(R2)  returns 0x00000000 (0000ms, 0794ms total)
T11D4 006:271 JLINK_ReadReg(R3)  returns 0x08002E19 (0000ms, 0795ms total)
T11D4 006:271 JLINK_ReadReg(R4)  returns 0x0800318C (0000ms, 0795ms total)
T11D4 006:271 JLINK_ReadReg(R5)  returns 0x00000003 (0000ms, 0795ms total)
T11D4 006:271 JLINK_ReadReg(R6)  returns 0x00000000 (0000ms, 0795ms total)
T11D4 006:271 JLINK_ReadReg(R7)  returns 0x00000000 (0000ms, 0795ms total)
T11D4 006:271 JLINK_ReadReg(R8)  returns 0x00000096 (0000ms, 0795ms total)
T11D4 006:271 JLINK_ReadReg(R9)  returns 0x00000AAF (0000ms, 0795ms total)
T11D4 006:271 JLINK_ReadReg(R10)  returns 0x00000000 (0000ms, 0795ms total)
T11D4 006:271 JLINK_ReadReg(R11)  returns 0x00000000 (0000ms, 0795ms total)
T11D4 006:271 JLINK_ReadReg(R12)  returns 0x00000004 (0000ms, 0795ms total)
T11D4 006:271 JLINK_ReadReg(R13 (SP))  returns 0x200005F8 (0000ms, 0795ms total)
T11D4 006:271 JLINK_ReadReg(R14)  returns 0x080001A9 (0000ms, 0795ms total)
T11D4 006:271 JLINK_ReadReg(R15 (PC))  returns 0x08002E48 (0000ms, 0795ms total)
T11D4 006:271 JLINK_ReadReg(XPSR)  returns 0x61000000 (0000ms, 0795ms total)
T11D4 006:271 JLINK_ReadReg(MSP)  returns 0x200005F8 (0000ms, 0795ms total)
T11D4 006:271 JLINK_ReadReg(PSP)  returns 0x20001000 (0000ms, 0795ms total)
T11D4 006:271 JLINK_ReadReg(CFBP)  returns 0x00000000 (0000ms, 0795ms total)
T0F54 006:274 JLINK_ReadMem (0x00000000, 0x0001 Bytes, ...) -- Read from C cache (1 bytes @ 0x08000000) - Data: 18  returns 0x00 (0000ms, 0795ms total)
T0F54 006:274 JLINK_ReadMem (0x200005FC, 0x001A Bytes, ...) -- Read from C cache (26 bytes @ 0x200005FC) - Data: 00 00 00 00 00 00 00 00 00 00 00 00 00 00 00 00 ...  returns 0x00 (0000ms, 0795ms total)
T0F54 006:274 JLINK_ReadMemU32(0xE0001004, 0x0001 Items, ...) - Data: B7 09 00 00  returns 0x01 (0000ms, 0795ms total)
T0F54 006:274 JLINK_ReadMem (0x200001D8, 0x0020 Bytes, ...) -- Read from C cache (32 bytes @ 0x200001D8) - Data: 00 00 00 00 00 00 00 00 00 00 00 00 00 00 00 00 ...  returns 0x00 (0000ms, 0795ms total)
T0F54 006:274 JLINK_ReadMem (0x08002E48, 0x003C Bytes, ...) -- Read from C cache (60 bytes @ 0x08002E48) - Data: 00 BF 4F F0 00 0A FE F7 01 FA FF F7 BD FB FF F7 ...  returns 0x00 (0001ms, 0796ms total)
T11D4 009:226 JLINK_Step() -- Read from C cache (2 bytes @ 0x08002E48) -- Simulated  returns 0x00 (0002ms, 0798ms total)
T11D4 009:228 JLINK_ReadReg(R15 (PC))  returns 0x08002E4A (0000ms, 0798ms total)
T11D4 009:228 JLINK_ReadReg(XPSR)  returns 0x61000000 (0000ms, 0798ms total)
T11D4 009:228 JLINK_ReadReg(R0)  returns 0x08002E3D (0000ms, 0798ms total)
T11D4 009:228 JLINK_ReadReg(R1)  returns 0x20000618 (0000ms, 0798ms total)
T11D4 009:228 JLINK_ReadReg(R2)  returns 0x00000000 (0000ms, 0798ms total)
T11D4 009:228 JLINK_ReadReg(R3)  returns 0x08002E19 (0000ms, 0798ms total)
T11D4 009:228 JLINK_ReadReg(R4)  returns 0x0800318C (0000ms, 0798ms total)
T11D4 009:228 JLINK_ReadReg(R5)  returns 0x00000003 (0000ms, 0798ms total)
T11D4 009:228 JLINK_ReadReg(R6)  returns 0x00000000 (0000ms, 0798ms total)
T11D4 009:228 JLINK_ReadReg(R7)  returns 0x00000000 (0000ms, 0798ms total)
T11D4 009:228 JLINK_ReadReg(R8)  returns 0x00000096 (0000ms, 0798ms total)
T11D4 009:228 JLINK_ReadReg(R9)  returns 0x00000AAF (0001ms, 0799ms total)
T11D4 009:229 JLINK_ReadReg(R10)  returns 0x00000000 (0000ms, 0799ms total)
T11D4 009:229 JLINK_ReadReg(R11)  returns 0x00000000 (0000ms, 0799ms total)
T11D4 009:229 JLINK_ReadReg(R12)  returns 0x00000004 (0000ms, 0799ms total)
T11D4 009:229 JLINK_ReadReg(R13 (SP))  returns 0x200005F8 (0000ms, 0799ms total)
T11D4 009:229 JLINK_ReadReg(R14)  returns 0x080001A9 (0000ms, 0799ms total)
T11D4 009:229 JLINK_ReadReg(R15 (PC))  returns 0x08002E4A (0000ms, 0799ms total)
T11D4 009:229 JLINK_ReadReg(XPSR)  returns 0x61000000 (0000ms, 0799ms total)
T11D4 009:229 JLINK_ReadReg(MSP)  returns 0x200005F8 (0000ms, 0799ms total)
T11D4 009:229 JLINK_ReadReg(PSP)  returns 0x20001000 (0000ms, 0799ms total)
T11D4 009:229 JLINK_ReadReg(CFBP)  returns 0x00000000 (0000ms, 0799ms total)
T0F54 009:232 JLINK_ReadMem (0x00000000, 0x0001 Bytes, ...) -- Read from C cache (1 bytes @ 0x08000000) - Data: 18  returns 0x00 (0000ms, 0799ms total)
T0F54 009:232 JLINK_ReadMem (0x200005FC, 0x001A Bytes, ...) -- Read from C cache (26 bytes @ 0x200005FC) - Data: 00 00 00 00 00 00 00 00 00 00 00 00 00 00 00 00 ...  returns 0x00 (0000ms, 0799ms total)
T0F54 009:232 JLINK_ReadMemU32(0xE0001004, 0x0001 Items, ...) - Data: B7 09 00 00  returns 0x01 (0000ms, 0799ms total)
T0F54 009:232 JLINK_ReadMem (0x200001D8, 0x0020 Bytes, ...) -- Read from C cache (32 bytes @ 0x200001D8) - Data: 00 00 00 00 00 00 00 00 00 00 00 00 00 00 00 00 ...  returns 0x00 (0000ms, 0799ms total)
T11D4 009:447 JLINK_ReadMem (0x08002E4A, 0x0002 Bytes, ...) -- Read from C cache (2 bytes @ 0x08002E4A) - Data: 4F F0  returns 0x00 (0000ms, 0799ms total)
T11D4 009:447 JLINK_ReadMem (0x08002E4C, 0x003C Bytes, ...) -- Read from C cache (60 bytes @ 0x08002E4C) - Data: 00 0A FE F7 01 FA FF F7 BD FB FF F7 7F FA FF F7 ...  returns 0x00 (0000ms, 0799ms total)
T11D4 009:447 JLINK_Step() -- Read from C cache (2 bytes @ 0x08002E4A) -- Read from C cache (2 bytes @ 0x08002E4C) -- Simulated  returns 0x00 (0000ms, 0799ms total)
T11D4 009:447 JLINK_ReadReg(R15 (PC))  returns 0x08002E4E (0000ms, 0799ms total)
T11D4 009:447 JLINK_ReadReg(XPSR)  returns 0x61000000 (0001ms, 0800ms total)
T11D4 009:448 JLINK_ReadReg(R0)  returns 0x08002E3D (0000ms, 0800ms total)
T11D4 009:448 JLINK_ReadReg(R1)  returns 0x20000618 (0000ms, 0800ms total)
T11D4 009:448 JLINK_ReadReg(R2)  returns 0x00000000 (0000ms, 0800ms total)
T11D4 009:448 JLINK_ReadReg(R3)  returns 0x08002E19 (0000ms, 0800ms total)
T11D4 009:448 JLINK_ReadReg(R4)  returns 0x0800318C (0000ms, 0800ms total)
T11D4 009:448 JLINK_ReadReg(R5)  returns 0x00000003 (0000ms, 0800ms total)
T11D4 009:448 JLINK_ReadReg(R6)  returns 0x00000000 (0000ms, 0800ms total)
T11D4 009:448 JLINK_ReadReg(R7)  returns 0x00000000 (0000ms, 0800ms total)
T11D4 009:448 JLINK_ReadReg(R8)  returns 0x00000096 (0000ms, 0800ms total)
T11D4 009:448 JLINK_ReadReg(R9)  returns 0x00000AAF (0000ms, 0800ms total)
T11D4 009:448 JLINK_ReadReg(R10)  returns 0x00000000 (0000ms, 0800ms total)
T11D4 009:448 JLINK_ReadReg(R11)  returns 0x00000000 (0000ms, 0800ms total)
T11D4 009:448 JLINK_ReadReg(R12)  returns 0x00000004 (0000ms, 0800ms total)
T11D4 009:448 JLINK_ReadReg(R13 (SP))  returns 0x200005F8 (0000ms, 0800ms total)
T11D4 009:448 JLINK_ReadReg(R14)  returns 0x080001A9 (0000ms, 0800ms total)
T11D4 009:449 JLINK_ReadReg(R15 (PC))  returns 0x08002E4E (0000ms, 0800ms total)
T11D4 009:449 JLINK_ReadReg(XPSR)  returns 0x61000000 (0000ms, 0800ms total)
T11D4 009:449 JLINK_ReadReg(MSP)  returns 0x200005F8 (0000ms, 0800ms total)
T11D4 009:449 JLINK_ReadReg(PSP)  returns 0x20001000 (0000ms, 0800ms total)
T11D4 009:449 JLINK_ReadReg(CFBP)  returns 0x00000000 (0000ms, 0800ms total)
T0F54 009:449 JLINK_ReadMem (0x00000000, 0x0001 Bytes, ...) -- Read from C cache (1 bytes @ 0x08000000) - Data: 18  returns 0x00 (0000ms, 0800ms total)
T0F54 009:449 JLINK_ReadMem (0x200005FC, 0x001A Bytes, ...) -- Read from C cache (26 bytes @ 0x200005FC) - Data: 00 00 00 00 00 00 00 00 00 00 00 00 00 00 00 00 ...  returns 0x00 (0001ms, 0801ms total)
T0F54 009:450 JLINK_ReadMemU32(0xE0001004, 0x0001 Items, ...) - Data: B7 09 00 00  returns 0x01 (0000ms, 0801ms total)
T0F54 009:450 JLINK_ReadMem (0x200001D8, 0x0020 Bytes, ...) -- Read from C cache (32 bytes @ 0x200001D8) - Data: 00 00 00 00 00 00 00 00 00 00 00 00 00 00 00 00 ...  returns 0x00 (0000ms, 0801ms total)
T11D4 009:652 JLINK_ReadMem (0x08002E4E, 0x0002 Bytes, ...) -- Read from C cache (2 bytes @ 0x08002E4E) - Data: FE F7  returns 0x00 (0000ms, 0801ms total)
T11D4 009:652 JLINK_ReadMem (0x08002E50, 0x003C Bytes, ...) -- Read from C cache (60 bytes @ 0x08002E50) - Data: 01 FA FF F7 BD FB FF F7 7F FA FF F7 5B FA FF F7 ...  returns 0x00 (0000ms, 0801ms total)
T11D4 009:652 JLINK_SetBPEx(Addr = 0x08002E52, Type = 0xFFFFFFF2)  returns 0x00000002 (0000ms, 0801ms total)
T11D4 009:652 JLINK_Go() -- CPU_WriteMem(4 bytes @ 0xE0002000) -- CPU_ReadMem(4 bytes @ 0xE0001000) -- CPU_WriteMem(4 bytes @ 0xE0002008) -- CPU_WriteMem(4 bytes @ 0xE0001004) (0007ms, 0808ms total)
T11D4 009:760 JLINK_IsHalted()  returns TRUE (0004ms, 0813ms total)
T11D4 009:764 JLINK_Halt()  returns 0x00 (0000ms, 0809ms total)
T11D4 009:764 JLINK_IsHalted()  returns TRUE (0000ms, 0809ms total)
T11D4 009:764 JLINK_IsHalted()  returns TRUE (0000ms, 0809ms total)
T11D4 009:764 JLINK_IsHalted()  returns TRUE (0000ms, 0809ms total)
T11D4 009:764 JLINK_ReadReg(R15 (PC))  returns 0x08002E52 (0000ms, 0809ms total)
T11D4 009:764 JLINK_ReadReg(XPSR)  returns 0x61000000 (0000ms, 0809ms total)
T11D4 009:764 JLINK_ClrBPEx(BPHandle = 0x00000002)  returns 0x00 (0000ms, 0809ms total)
T11D4 009:764 JLINK_ReadMemU32(0xE000ED30, 0x0001 Items, ...) -- CPU_ReadMem(4 bytes @ 0xE000ED30) - Data: 03 00 00 00  returns 0x01 (0002ms, 0811ms total)
T11D4 009:766 JLINK_ReadMemU32(0xE0001028, 0x0001 Items, ...) -- CPU_ReadMem(4 bytes @ 0xE0001028) - Data: 00 00 00 00  returns 0x01 (0001ms, 0812ms total)
T11D4 009:767 JLINK_ReadMemU32(0xE0001038, 0x0001 Items, ...) -- CPU_ReadMem(4 bytes @ 0xE0001038) - Data: 00 02 00 00  returns 0x01 (0001ms, 0813ms total)
T11D4 009:768 JLINK_ReadMemU32(0xE0001048, 0x0001 Items, ...) -- CPU_ReadMem(4 bytes @ 0xE0001048) - Data: 00 00 00 00  returns 0x01 (0001ms, 0814ms total)
T11D4 009:769 JLINK_ReadMemU32(0xE0001058, 0x0001 Items, ...) -- CPU_ReadMem(4 bytes @ 0xE0001058) - Data: 00 00 00 00  returns 0x01 (0001ms, 0815ms total)
T11D4 009:770 JLINK_ReadReg(R0)  returns 0x00000000 (0000ms, 0815ms total)
T11D4 009:770 JLINK_ReadReg(R1)  returns 0x40010000 (0000ms, 0815ms total)
T11D4 009:770 JLINK_ReadReg(R2)  returns 0xE000ED18 (0000ms, 0815ms total)
T11D4 009:770 JLINK_ReadReg(R3)  returns 0x00000001 (0000ms, 0815ms total)
T11D4 009:770 JLINK_ReadReg(R4)  returns 0x0800318C (0000ms, 0815ms total)
T11D4 009:770 JLINK_ReadReg(R5)  returns 0x00000003 (0000ms, 0815ms total)
T11D4 009:770 JLINK_ReadReg(R6)  returns 0x00000000 (0000ms, 0815ms total)
T11D4 009:770 JLINK_ReadReg(R7)  returns 0x00000000 (0000ms, 0815ms total)
T11D4 009:770 JLINK_ReadReg(R8)  returns 0x00000096 (0000ms, 0815ms total)
T11D4 009:770 JLINK_ReadReg(R9)  returns 0x00000AAF (0000ms, 0815ms total)
T11D4 009:770 JLINK_ReadReg(R10)  returns 0x00000000 (0000ms, 0815ms total)
T11D4 009:770 JLINK_ReadReg(R11)  returns 0x00000000 (0000ms, 0815ms total)
T11D4 009:770 JLINK_ReadReg(R12)  returns 0x00000004 (0000ms, 0815ms total)
T11D4 009:771 JLINK_ReadReg(R13 (SP))  returns 0x200005F8 (0000ms, 0816ms total)
T11D4 009:771 JLINK_ReadReg(R14)  returns 0x080013CB (0000ms, 0816ms total)
T11D4 009:771 JLINK_ReadReg(R15 (PC))  returns 0x08002E52 (0000ms, 0816ms total)
T11D4 009:771 JLINK_ReadReg(XPSR)  returns 0x61000000 (0000ms, 0816ms total)
T11D4 009:771 JLINK_ReadReg(MSP)  returns 0x200005F8 (0000ms, 0816ms total)
T11D4 009:771 JLINK_ReadReg(PSP)  returns 0x20001000 (0000ms, 0816ms total)
T11D4 009:771 JLINK_ReadReg(CFBP)  returns 0x00000000 (0000ms, 0816ms total)
T0F54 009:773 JLINK_ReadMem (0x00000000, 0x0001 Bytes, ...) -- CPU_ReadMem(4 bytes @ 0x00000004) -- CPU_ReadMem(64 bytes @ 0x08000000) -- Updating C cache (64 bytes @ 0x08000000) -- Read from C cache (1 bytes @ 0x08000000) - Data: 18  returns 0x00 (0004ms, 0820ms total)
T0F54 009:777 JLINK_ReadMem (0x200005FC, 0x001A Bytes, ...) -- CPU_ReadMem(128 bytes @ 0x200005C0) -- Updating C cache (128 bytes @ 0x200005C0) -- Read from C cache (26 bytes @ 0x200005FC) - Data: 00 00 00 00 00 00 00 00 00 00 00 00 00 00 00 00 ...  returns 0x00 (0002ms, 0822ms total)
T0F54 009:779 JLINK_ReadMemU32(0xE0001004, 0x0001 Items, ...) -- CPU_ReadMem(4 bytes @ 0xE0001004) - Data: AB 0D 00 00  returns 0x01 (0001ms, 0823ms total)
T0F54 009:780 JLINK_ReadMem (0x200001D8, 0x0020 Bytes, ...) -- CPU_ReadMem(64 bytes @ 0x200001C0) -- Updating C cache (64 bytes @ 0x200001C0) -- Read from C cache (32 bytes @ 0x200001D8) - Data: 00 00 00 00 00 00 00 00 00 00 00 00 00 00 00 00 ...  returns 0x00 (0002ms, 0825ms total)
T11D4 009:832 JLINK_ReadMem (0x08002E52, 0x0002 Bytes, ...) -- CPU_ReadMem(64 bytes @ 0x08002E40) -- Updating C cache (64 bytes @ 0x08002E40) -- Read from C cache (2 bytes @ 0x08002E52) - Data: FF F7  returns 0x00 (0001ms, 0826ms total)
T11D4 009:833 JLINK_ReadMem (0x08002E54, 0x003C Bytes, ...) -- CPU_ReadMem(64 bytes @ 0x08002E80) -- Updating C cache (64 bytes @ 0x08002E80) -- Read from C cache (60 bytes @ 0x08002E54) - Data: BD FB FF F7 7F FA FF F7 5B FA FF F7 2D FA FF F7 ...  returns 0x00 (0002ms, 0828ms total)
T11D4 009:835 JLINK_SetBPEx(Addr = 0x08002E56, Type = 0xFFFFFFF2)  returns 0x00000003 (0000ms, 0828ms total)
T11D4 009:835 JLINK_Go() -- CPU_WriteMem(4 bytes @ 0xE0002000) -- CPU_ReadMem(4 bytes @ 0xE0001000) -- CPU_WriteMem(4 bytes @ 0xE0002008) (0005ms, 0833ms total)
T11D4 009:940 JLINK_IsHalted()  returns TRUE (0004ms, 0837ms total)
T11D4 009:944 JLINK_Halt()  returns 0x00 (0000ms, 0833ms total)
T11D4 009:944 JLINK_IsHalted()  returns TRUE (0000ms, 0833ms total)
T11D4 009:944 JLINK_IsHalted()  returns TRUE (0001ms, 0834ms total)
T11D4 009:945 JLINK_IsHalted()  returns TRUE (0000ms, 0833ms total)
T11D4 009:945 JLINK_ReadReg(R15 (PC))  returns 0x08002E56 (0000ms, 0833ms total)
T11D4 009:945 JLINK_ReadReg(XPSR)  returns 0x21000000 (0000ms, 0833ms total)
T11D4 009:945 JLINK_ClrBPEx(BPHandle = 0x00000003)  returns 0x00 (0000ms, 0833ms total)
T11D4 009:945 JLINK_ReadMemU32(0xE000ED30, 0x0001 Items, ...) -- CPU_ReadMem(4 bytes @ 0xE000ED30) - Data: 03 00 00 00  returns 0x01 (0001ms, 0834ms total)
T11D4 009:946 JLINK_ReadMemU32(0xE0001028, 0x0001 Items, ...) -- CPU_ReadMem(4 bytes @ 0xE0001028) - Data: 00 00 00 00  returns 0x01 (0001ms, 0835ms total)
T11D4 009:947 JLINK_ReadMemU32(0xE0001038, 0x0001 Items, ...) -- CPU_ReadMem(4 bytes @ 0xE0001038) - Data: 00 02 00 00  returns 0x01 (0001ms, 0836ms total)
T11D4 009:948 JLINK_ReadMemU32(0xE0001048, 0x0001 Items, ...) -- CPU_ReadMem(4 bytes @ 0xE0001048) - Data: 00 00 00 00  returns 0x01 (0001ms, 0837ms total)
T11D4 009:949 JLINK_ReadMemU32(0xE0001058, 0x0001 Items, ...) -- CPU_ReadMem(4 bytes @ 0xE0001058) - Data: 00 00 00 00  returns 0x01 (0001ms, 0838ms total)
T11D4 009:951 JLINK_ReadReg(R0)  returns 0xFFFFFFFF (0000ms, 0838ms total)
T11D4 009:951 JLINK_ReadReg(R1)  returns 0x00000000 (0000ms, 0838ms total)
T11D4 009:951 JLINK_ReadReg(R2)  returns 0xE000ED18 (0000ms, 0838ms total)
T11D4 009:951 JLINK_ReadReg(R3)  returns 0x0000000B (0000ms, 0838ms total)
T11D4 009:951 JLINK_ReadReg(R4)  returns 0x0800318C (0000ms, 0838ms total)
T11D4 009:951 JLINK_ReadReg(R5)  returns 0x00000003 (0000ms, 0838ms total)
T11D4 009:951 JLINK_ReadReg(R6)  returns 0x00000000 (0000ms, 0838ms total)
T11D4 009:951 JLINK_ReadReg(R7)  returns 0x00000000 (0000ms, 0838ms total)
T11D4 009:951 JLINK_ReadReg(R8)  returns 0x00000096 (0000ms, 0838ms total)
T11D4 009:951 JLINK_ReadReg(R9)  returns 0x00000AAF (0000ms, 0838ms total)
T11D4 009:951 JLINK_ReadReg(R10)  returns 0x00000000 (0000ms, 0838ms total)
T11D4 009:951 JLINK_ReadReg(R11)  returns 0x00000000 (0000ms, 0838ms total)
T11D4 009:951 JLINK_ReadReg(R12)  returns 0x10100F0E (0000ms, 0838ms total)
T11D4 009:951 JLINK_ReadReg(R13 (SP))  returns 0x200005F8 (0000ms, 0838ms total)
T11D4 009:951 JLINK_ReadReg(R14)  returns 0x080013CB (0000ms, 0838ms total)
T11D4 009:951 JLINK_ReadReg(R15 (PC))  returns 0x08002E56 (0000ms, 0838ms total)
T11D4 009:951 JLINK_ReadReg(XPSR)  returns 0x21000000 (0001ms, 0839ms total)
T11D4 009:952 JLINK_ReadReg(MSP)  returns 0x200005F8 (0000ms, 0839ms total)
T11D4 009:952 JLINK_ReadReg(PSP)  returns 0x20001000 (0000ms, 0839ms total)
T11D4 009:952 JLINK_ReadReg(CFBP)  returns 0x00000000 (0000ms, 0839ms total)
T0F54 009:952 JLINK_ReadMem (0x00000000, 0x0001 Bytes, ...) -- CPU_ReadMem(4 bytes @ 0x00000004) -- CPU_ReadMem(64 bytes @ 0x08000000) -- Updating C cache (64 bytes @ 0x08000000) -- Read from C cache (1 bytes @ 0x08000000) - Data: 18  returns 0x00 (0004ms, 0843ms total)
T0F54 009:956 JLINK_ReadMem (0x200005FC, 0x001A Bytes, ...) -- CPU_ReadMem(128 bytes @ 0x200005C0) -- Updating C cache (128 bytes @ 0x200005C0) -- Read from C cache (26 bytes @ 0x200005FC) - Data: 00 00 00 00 00 00 00 00 00 00 00 00 00 00 00 00 ...  returns 0x00 (0002ms, 0845ms total)
T0F54 009:958 JLINK_ReadMemU32(0xE0001004, 0x0001 Items, ...) -- CPU_ReadMem(4 bytes @ 0xE0001004) - Data: 41 19 00 00  returns 0x01 (0001ms, 0846ms total)
T0F54 009:959 JLINK_ReadMem (0x200001D8, 0x0020 Bytes, ...) -- CPU_ReadMem(64 bytes @ 0x200001C0) -- Updating C cache (64 bytes @ 0x200001C0) -- Read from C cache (32 bytes @ 0x200001D8) - Data: 00 00 00 00 00 00 00 00 00 00 00 00 00 00 00 00 ...  returns 0x00 (0002ms, 0848ms total)
T0F54 009:961 JLINK_ReadMem (0x08002E56, 0x0002 Bytes, ...) -- CPU_ReadMem(64 bytes @ 0x08002E40) -- Updating C cache (64 bytes @ 0x08002E40) -- Read from C cache (2 bytes @ 0x08002E56) - Data: FF F7  returns 0x00 (0002ms, 0850ms total)
T0F54 009:963 JLINK_ReadMem (0x08002E58, 0x003C Bytes, ...) -- CPU_ReadMem(64 bytes @ 0x08002E80) -- Updating C cache (64 bytes @ 0x08002E80) -- Read from C cache (60 bytes @ 0x08002E58) - Data: 7F FA FF F7 5B FA FF F7 2D FA FF F7 EB FA FF F7 ...  returns 0x00 (0002ms, 0852ms total)
T11D4 010:008 JLINK_SetBPEx(Addr = 0x08002E5A, Type = 0xFFFFFFF2)  returns 0x00000004 (0000ms, 0852ms total)
T11D4 010:008 JLINK_Go() -- CPU_WriteMem(4 bytes @ 0xE0002000) -- CPU_ReadMem(4 bytes @ 0xE0001000) -- CPU_WriteMem(4 bytes @ 0xE0002008) (0005ms, 0857ms total)
T11D4 010:113 JLINK_IsHalted()  returns TRUE (0004ms, 0861ms total)
T11D4 010:117 JLINK_Halt()  returns 0x00 (0000ms, 0857ms total)
T11D4 010:117 JLINK_IsHalted()  returns TRUE (0000ms, 0857ms total)
T11D4 010:117 JLINK_IsHalted()  returns TRUE (0000ms, 0857ms total)
T11D4 010:117 JLINK_IsHalted()  returns TRUE (0000ms, 0857ms total)
T11D4 010:117 JLINK_ReadReg(R15 (PC))  returns 0x08002E5A (0000ms, 0857ms total)
T11D4 010:117 JLINK_ReadReg(XPSR)  returns 0x61000000 (0000ms, 0857ms total)
T11D4 010:117 JLINK_ClrBPEx(BPHandle = 0x00000004)  returns 0x00 (0000ms, 0857ms total)
T11D4 010:117 JLINK_ReadMemU32(0xE000ED30, 0x0001 Items, ...) -- CPU_ReadMem(4 bytes @ 0xE000ED30) - Data: 03 00 00 00  returns 0x01 (0002ms, 0859ms total)
T11D4 010:119 JLINK_ReadMemU32(0xE0001028, 0x0001 Items, ...) -- CPU_ReadMem(4 bytes @ 0xE0001028) - Data: 00 00 00 00  returns 0x01 (0001ms, 0860ms total)
T11D4 010:120 JLINK_ReadMemU32(0xE0001038, 0x0001 Items, ...) -- CPU_ReadMem(4 bytes @ 0xE0001038) - Data: 00 02 00 00  returns 0x01 (0001ms, 0861ms total)
T11D4 010:121 JLINK_ReadMemU32(0xE0001048, 0x0001 Items, ...) -- CPU_ReadMem(4 bytes @ 0xE0001048) - Data: 00 00 00 00  returns 0x01 (0001ms, 0862ms total)
T11D4 010:122 JLINK_ReadMemU32(0xE0001058, 0x0001 Items, ...) -- CPU_ReadMem(4 bytes @ 0xE0001058) - Data: 00 00 00 00  returns 0x01 (0001ms, 0863ms total)
T11D4 010:123 JLINK_ReadReg(R0)  returns 0x00000000 (0000ms, 0863ms total)
T11D4 010:123 JLINK_ReadReg(R1)  returns 0x200005E4 (0000ms, 0863ms total)
T11D4 010:123 JLINK_ReadReg(R2)  returns 0x00000010 (0000ms, 0863ms total)
T11D4 010:123 JLINK_ReadReg(R3)  returns 0x00800000 (0000ms, 0863ms total)
T11D4 010:123 JLINK_ReadReg(R4)  returns 0x0800318C (0000ms, 0863ms total)
T11D4 010:123 JLINK_ReadReg(R5)  returns 0x00000003 (0000ms, 0863ms total)
T11D4 010:123 JLINK_ReadReg(R6)  returns 0x00000000 (0000ms, 0863ms total)
T11D4 010:123 JLINK_ReadReg(R7)  returns 0x00000000 (0000ms, 0863ms total)
T11D4 010:123 JLINK_ReadReg(R8)  returns 0x00000096 (0000ms, 0863ms total)
T11D4 010:123 JLINK_ReadReg(R9)  returns 0x00000AAF (0001ms, 0864ms total)
T11D4 010:124 JLINK_ReadReg(R10)  returns 0x00000000 (0000ms, 0864ms total)
T11D4 010:124 JLINK_ReadReg(R11)  returns 0x00000000 (0000ms, 0864ms total)
T11D4 010:124 JLINK_ReadReg(R12)  returns 0x00000002 (0000ms, 0864ms total)
T11D4 010:124 JLINK_ReadReg(R13 (SP))  returns 0x200005F8 (0000ms, 0864ms total)
T11D4 010:124 JLINK_ReadReg(R14)  returns 0x0800242B (0000ms, 0864ms total)
T11D4 010:124 JLINK_ReadReg(R15 (PC))  returns 0x08002E5A (0000ms, 0864ms total)
T11D4 010:124 JLINK_ReadReg(XPSR)  returns 0x61000000 (0000ms, 0864ms total)
T11D4 010:124 JLINK_ReadReg(MSP)  returns 0x200005F8 (0000ms, 0864ms total)
T11D4 010:124 JLINK_ReadReg(PSP)  returns 0x20001000 (0000ms, 0864ms total)
T11D4 010:124 JLINK_ReadReg(CFBP)  returns 0x00000000 (0000ms, 0864ms total)
T0F54 010:124 JLINK_ReadMem (0x00000000, 0x0001 Bytes, ...) -- CPU_ReadMem(4 bytes @ 0x00000004) -- CPU_ReadMem(64 bytes @ 0x08000000) -- Updating C cache (64 bytes @ 0x08000000) -- Read from C cache (1 bytes @ 0x08000000) - Data: 18  returns 0x00 (0004ms, 0868ms total)
T0F54 010:128 JLINK_ReadMem (0x200005FC, 0x001A Bytes, ...) -- CPU_ReadMem(128 bytes @ 0x200005C0) -- Updating C cache (128 bytes @ 0x200005C0) -- Read from C cache (26 bytes @ 0x200005FC) - Data: 00 00 00 00 00 00 00 00 00 00 00 00 00 00 00 00 ...  returns 0x00 (0002ms, 0870ms total)
T0F54 010:130 JLINK_ReadMemU32(0xE0001004, 0x0001 Items, ...) -- CPU_ReadMem(4 bytes @ 0xE0001004) - Data: 78 26 00 00  returns 0x01 (0001ms, 0871ms total)
T0F54 010:132 JLINK_ReadMem (0x200001D8, 0x0020 Bytes, ...) -- CPU_ReadMem(64 bytes @ 0x200001C0) -- Updating C cache (64 bytes @ 0x200001C0) -- Read from C cache (32 bytes @ 0x200001D8) - Data: 00 00 00 00 00 00 00 00 00 00 00 00 00 00 00 00 ...  returns 0x00 (0001ms, 0872ms total)
T0F54 010:133 JLINK_ReadMem (0x08002E5A, 0x0002 Bytes, ...) -- CPU_ReadMem(64 bytes @ 0x08002E40) -- Updating C cache (64 bytes @ 0x08002E40) -- Read from C cache (2 bytes @ 0x08002E5A) - Data: FF F7  returns 0x00 (0002ms, 0874ms total)
T0F54 010:135 JLINK_ReadMem (0x08002E5C, 0x003C Bytes, ...) -- CPU_ReadMem(64 bytes @ 0x08002E80) -- Updating C cache (64 bytes @ 0x08002E80) -- Read from C cache (60 bytes @ 0x08002E5C) - Data: 5B FA FF F7 2D FA FF F7 EB FA FF F7 29 FB FF F7 ...  returns 0x00 (0002ms, 0876ms total)
T11D4 010:177 JLINK_SetBPEx(Addr = 0x08002E5E, Type = 0xFFFFFFF2)  returns 0x00000005 (0000ms, 0876ms total)
T11D4 010:177 JLINK_Go() -- CPU_WriteMem(4 bytes @ 0xE0002000) -- CPU_ReadMem(4 bytes @ 0xE0001000) -- CPU_WriteMem(4 bytes @ 0xE0002008) (0004ms, 0880ms total)
T11D4 010:281 JLINK_IsHalted()  returns TRUE (0005ms, 0885ms total)
T11D4 010:286 JLINK_Halt()  returns 0x00 (0000ms, 0880ms total)
T11D4 010:286 JLINK_IsHalted()  returns TRUE (0000ms, 0880ms total)
T11D4 010:286 JLINK_IsHalted()  returns TRUE (0000ms, 0880ms total)
T11D4 010:286 JLINK_IsHalted()  returns TRUE (0000ms, 0880ms total)
T11D4 010:286 JLINK_ReadReg(R15 (PC))  returns 0x08002E5E (0000ms, 0880ms total)
T11D4 010:286 JLINK_ReadReg(XPSR)  returns 0x41000000 (0000ms, 0880ms total)
T11D4 010:286 JLINK_ClrBPEx(BPHandle = 0x00000005)  returns 0x00 (0000ms, 0880ms total)
T11D4 010:286 JLINK_ReadMemU32(0xE000ED30, 0x0001 Items, ...) -- CPU_ReadMem(4 bytes @ 0xE000ED30) - Data: 03 00 00 00  returns 0x01 (0002ms, 0882ms total)
T11D4 010:288 JLINK_ReadMemU32(0xE0001028, 0x0001 Items, ...) -- CPU_ReadMem(4 bytes @ 0xE0001028) - Data: 00 00 00 00  returns 0x01 (0001ms, 0883ms total)
T11D4 010:289 JLINK_ReadMemU32(0xE0001038, 0x0001 Items, ...) -- CPU_ReadMem(4 bytes @ 0xE0001038) - Data: 00 02 00 00  returns 0x01 (0001ms, 0884ms total)
T11D4 010:290 JLINK_ReadMemU32(0xE0001048, 0x0001 Items, ...) -- CPU_ReadMem(4 bytes @ 0xE0001048) - Data: 00 00 00 00  returns 0x01 (0001ms, 0885ms total)
T11D4 010:291 JLINK_ReadMemU32(0xE0001058, 0x0001 Items, ...) -- CPU_ReadMem(4 bytes @ 0xE0001058) - Data: 00 00 00 00  returns 0x01 (0001ms, 0886ms total)
T11D4 010:292 JLINK_ReadReg(R0)  returns 0x00000010 (0000ms, 0886ms total)
T11D4 010:292 JLINK_ReadReg(R1)  returns 0x00010000 (0000ms, 0886ms total)
